name,type,start_time,duration,"mosi","miso"
"SPI","result",0.01620581,0.00078075,0x00,0x00
"SPI","result",0.01929364,0.00078075,0x38,0x00
"SPI","result",0.02236267,0.00078074,0xF1,0x00
"SPI","result",0.02543164,0.00078074,0xB9,0x00
"SPI","result",0.02850024,0.00078075,0xF1,0x00
"SPI","result",0.03156902,0.00078074,0x57,0x00
"SPI","result",0.03463918,0.00078074,0xC1,0x00
"SPI","result",0.0377069,0.00078075,0x49,0x00
"SPI","result",0.04077587,0.00078075,0x01,0x00
"SPI","result",0.04384478,0.00078075,0xDF,0x00
"SPI","result",0.05610306,0.00078074,0x00,0x00
"SPI","result",0.05918926,0.00078076,0x38,0x00
"SPI","result",0.06225855,0.00078074,0xF1,0x00
"SPI","result",0.06532858,0.00078074,0xB9,0x00
"SPI","result",0.06839587,0.00078074,0xF1,0x00
"SPI","result",0.07146546,0.00078075,0x57,0x00
"SPI","result",0.07453455,0.00078075,0xC1,0x00
"SPI","result",0.07760303,0.00078075,0x49,0x00
"SPI","result",0.08067156,0.00078075,0x01,0x00
"SPI","result",0.08374047,0.00078074,0xDF,0x00
"SPI","result",0.09599738,0.00078074,0x00,0x00
"SPI","result",0.09908495,0.00078076,0x38,0x00
"SPI","result",0.10215386,0.00078075,0xF1,0x00
"SPI","result",0.10522433,0.00078074,0xB9,0x00
"SPI","result",0.10829217,0.00078076,0xF1,0x00
"SPI","result",0.11136059,0.00078074,0x57,0x00
"SPI","result",0.11442956,0.00078074,0xC1,0x00
"SPI","result",0.11749847,0.00078075,0x49,0x00
"SPI","result",0.12056737,0.00078075,0x01,0x00
"SPI","result",0.12363622,0.00078074,0xDF,0x00
"SPI","result",0.13589325,0.00078075,0x00,0x00
"SPI","result",0.13898083,0.00078075,0x38,0x00
"SPI","result",0.14204973,0.00078075,0xF1,0x00
"SPI","result",0.14512014,0.00078075,0xB9,0x00
"SPI","result",0.14818843,0.00078075,0xF1,0x00
"SPI","result",0.1512564,0.00078075,0x57,0x00
"SPI","result",0.15432537,0.00078075,0xC1,0x00
"SPI","result",0.15739422,0.00078075,0x49,0x00
"SPI","result",0.16046325,0.00078075,0x01,0x00
"SPI","result",0.16353235,0.00078074,0xDF,0x00
"SPI","result",0.17578975,0.00078074,0x00,0x00
"SPI","result",0.17887658,0.00078075,0x38,0x00
"SPI","result",0.18194574,0.00078075,0xF1,0x00
"SPI","result",0.18501446,0.00078074,0xB9,0x00
"SPI","result",0.1880838,0.00078075,0xF1,0x00
"SPI","result",0.19115284,0.00078075,0x57,0x00
"SPI","result",0.19422131,0.00078075,0xC1,0x00
"SPI","result",0.19729053,0.00078075,0x49,0x00
"SPI","result",0.200359,0.00078075,0x01,0x00
"SPI","result",0.20342791,0.00078075,0xDF,0x00
"SPI","result",0.215685,0.00078075,0x00,0x00
"SPI","result",0.21877246,0.00078075,0x38,0x00
"SPI","result",0.22184143,0.00078074,0xF1,0x00
"SPI","result",0.22491027,0.00078075,0xB9,0x00
"SPI","result",0.22798068,0.00078076,0xF1,0x00
"SPI","result",0.23104815,0.00078075,0x57,0x00
"SPI","result",0.234117,0.00078074,0xC1,0x00
"SPI","result",0.23718622,0.00078076,0x49,0x00
"SPI","result",0.24025519,0.00078075,0x01,0x00
"SPI","result",0.24332379,0.00078074,0xDF,0x00
"SPI","result",0.25558082,0.00078075,0x00,0x00
"SPI","result",0.25866989,0.00078076,0x38,0x00
"SPI","result",0.26173743,0.00078074,0xF1,0x00
"SPI","result",0.26480633,0.00078075,0xB9,0x00
"SPI","result",0.26787493,0.00078076,0xF1,0x00
"SPI","result",0.27094397,0.00078075,0x57,0x00
"SPI","result",0.27401282,0.00078074,0xC1,0x00
"SPI","result",0.27708204,0.00078074,0x49,0x00
"SPI","result",0.28015069,0.00078076,0x01,0x00
"SPI","result",0.28321992,0.00078074,0xDF,0x00
"SPI","result",0.29547782,0.00078074,0x00,0x00
"SPI","result",0.29856408,0.00078076,0x38,0x00
"SPI","result",0.30163312,0.00078074,0xF1,0x00
"SPI","result",0.30470196,0.00078075,0xB9,0x00
"SPI","result",0.30777094,0.00078075,0xF1,0x00
"SPI","result",0.31083991,0.00078074,0x57,0x00
"SPI","result",0.31390869,0.00078075,0xC1,0x00
"SPI","result",0.31697779,0.00078075,0x49,0x00
"SPI","result",0.3200467,0.00078075,0x01,0x00
"SPI","result",0.32311648,0.00078075,0xDF,0x00
"SPI","result",0.33537251,0.00078074,0x00,0x00
"SPI","result",0.33845984,0.00078075,0x38,0x00
"SPI","result",0.34152906,0.00078074,0xF1,0x00
"SPI","result",0.34459772,0.00078074,0xB9,0x00
"SPI","result",0.34766669,0.00078075,0xF1,0x00
"SPI","result",0.35073585,0.00078074,0x57,0x00
"SPI","result",0.35380475,0.00078075,0xC1,0x00
"SPI","result",0.35687342,0.00078074,0x49,0x00
"SPI","result",0.35994326,0.00078076,0x01,0x00
"SPI","result",0.3630118,0.00078074,0xDF,0x00
"SPI","result",0.37526845,0.00078074,0x00,0x00
"SPI","result",0.37835571,0.00078075,0x38,0x00
"SPI","result",0.38142487,0.00078075,0xF1,0x00
"SPI","result",0.38449372,0.00078075,0xB9,0x00
"SPI","result",0.38756257,0.00078075,0xF1,0x00
"SPI","result",0.39063128,0.00078075,0x57,0x00
"SPI","result",0.39370045,0.00078074,0xC1,0x00
"SPI","result",0.39677117,0.00078075,0x49,0x00
"SPI","result",0.39983832,0.00078076,0x01,0x00
"SPI","result",0.40290779,0.00078075,0xDF,0x00
"SPI","result",0.41516551,0.00078075,0x00,0x00
"SPI","result",0.41825153,0.00078075,0x38,0x00
"SPI","result",0.42132069,0.00078075,0xF1,0x00
"SPI","result",0.42438928,0.00078075,0xB9,0x00
"SPI","result",0.42745963,0.00078075,0xF1,0x00
"SPI","result",0.43052716,0.00078075,0x57,0x00
"SPI","result",0.43359639,0.00078074,0xC1,0x00
"SPI","result",0.43666636,0.00078074,0x49,0x00
"SPI","result",0.43973401,0.00078076,0x01,0x00
"SPI","result",0.44280305,0.00078074,0xDF,0x00
"SPI","result",0.45505983,0.00078074,0x00,0x00
"SPI","result",0.45814728,0.00078075,0x38,0x00
"SPI","result",0.46121619,0.00078075,0xF1,0x00
"SPI","result",0.46428572,0.00078075,0xB9,0x00
"SPI","result",0.46735444,0.00078075,0xF1,0x00
"SPI","result",0.47042291,0.00078075,0x57,0x00
"SPI","result",0.47349226,0.00078075,0xC1,0x00
"SPI","result",0.47656098,0.00078075,0x49,0x00
"SPI","result",0.47962983,0.00078075,0x01,0x00
"SPI","result",0.48269967,0.00078075,0xDF,0x00
"SPI","result",0.49495701,0.00078075,0x00,0x00
"SPI","result",0.49804353,0.00078076,0x38,0x00
"SPI","result",0.50111219,0.00078075,0xF1,0x00
"SPI","result",0.50418097,0.00078075,0xB9,0x00
"SPI","result",0.50725157,0.00078075,0xF1,0x00
"SPI","result",0.51031873,0.00078075,0x57,0x00
"SPI","result",0.51340356,0.00078074,0xC1,0x00
"SPI","result",0.51645692,0.00078075,0x49,0x00
"SPI","result",0.51952602,0.00078075,0x01,0x00
"SPI","result",0.52259456,0.00078074,0xDF,0x00
"SPI","result",0.53485133,0.00078075,0x00,0x00
"SPI","result",0.53793891,0.00078075,0x38,0x00
"SPI","result",0.54100819,0.00078075,0xF1,0x00
"SPI","result",0.54407672,0.00078075,0xB9,0x00
"SPI","result",0.54714582,0.00078075,0xF1,0x00
"SPI","result",0.55021454,0.00078075,0x57,0x00
"SPI","result",0.55328364,0.00078075,0xC1,0x00
"SPI","result",0.55635536,0.00078075,0x49,0x00
"SPI","result",0.55942133,0.00078076,0x01,0x00
"SPI","result",0.56249087,0.00078074,0xDF,0x00
"SPI","result",0.57474739,0.00078076,0x00,0x00
"SPI","result",0.57783478,0.00078076,0x38,0x00
"SPI","result",0.58090363,0.00078075,0xF1,0x00
"SPI","result",0.5839726,0.00078075,0xB9,0x00
"SPI","result",0.5870432,0.00078075,0xF1,0x00
"SPI","result",0.59011036,0.00078074,0x57,0x00
"SPI","result",0.59317933,0.00078074,0xC1,0x00
"SPI","result",0.59624861,0.00078075,0x49,0x00
"SPI","result",0.59931714,0.00078076,0x01,0x00
"SPI","result",0.60238668,0.00078075,0xDF,0x00
"SPI","result",0.61464465,0.00078074,0x00,0x00
"SPI","result",0.61773079,0.00078075,0x38,0x00
"SPI","result",0.62079963,0.00078075,0xF1,0x00
"SPI","result",0.62386836,0.00078074,0xB9,0x00
"SPI","result",0.62693726,0.00078075,0xF1,0x00
"SPI","result",0.63000623,0.00078076,0x57,0x00
"SPI","result",0.63307521,0.00078074,0xC1,0x00
"SPI","result",0.63614461,0.00078075,0x49,0x00
"SPI","result",0.63921296,0.00078076,0x01,0x00
"SPI","result",0.64228187,0.00078075,0xDF,0x00
"SPI","result",0.65453896,0.00078075,0x00,0x00
"SPI","result",0.65762635,0.00078075,0x38,0x00
"SPI","result",0.66069526,0.00078075,0xF1,0x00
"SPI","result",0.66376417,0.00078075,0xB9,0x00
"SPI","result",0.66683326,0.00078076,0xF1,0x00
"SPI","result",0.66990261,0.00078075,0x57,0x00
"SPI","result",0.67297102,0.00078075,0xC1,0x00
"SPI","result",0.67604018,0.00078074,0x49,0x00
"SPI","result",0.67910927,0.00078076,0x01,0x00
"SPI","result",0.68217762,0.00078075,0xDF,0x00
"SPI","result",0.69443552,0.00078075,0x00,0x00
"SPI","result",0.69752266,0.00078076,0x38,0x00
"SPI","result",0.70059107,0.00078075,0xF1,0x00
"SPI","result",0.70366029,0.00078075,0xB9,0x00
"SPI","result",0.70672889,0.00078076,0xF1,0x00
"SPI","result",0.70979811,0.00078075,0x57,0x00
"SPI","result",0.71286827,0.00078075,0xC1,0x00
"SPI","result",0.71593687,0.00078074,0x49,0x00
"SPI","result",0.71900521,0.00078076,0x01,0x00
"SPI","result",0.72207344,0.00078074,0xDF,0x00
"SPI","result",0.73433047,0.00078074,0x00,0x00
"SPI","result",0.73741823,0.00078075,0x38,0x00
"SPI","result",0.74048689,0.00078075,0xF1,0x00
"SPI","result",0.74355623,0.00078075,0xB9,0x00
"SPI","result",0.74662477,0.00078075,0xF1,0x00
"SPI","result",0.74969362,0.00078075,0x57,0x00
"SPI","result",0.75276259,0.00078074,0xC1,0x00
"SPI","result",0.75583156,0.00078074,0x49,0x00
"SPI","result",0.75890084,0.00078075,0x01,0x00
"SPI","result",0.76197081,0.00078075,0xDF,0x00
"SPI","result",0.77422628,0.00078075,0x00,0x00
"SPI","result",0.77731386,0.00078075,0x38,0x00
"SPI","result",0.78038451,0.00078075,0xF1,0x00
"SPI","result",0.78345174,0.00078074,0xB9,0x00
"SPI","result",0.78652108,0.00078075,0xF1,0x00
"SPI","result",0.78958943,0.00078075,0x57,0x00
"SPI","result",0.79265865,0.00078075,0xC1,0x00
"SPI","result",0.79572725,0.00078074,0x49,0x00
"SPI","result",0.79879628,0.00078075,0x01,0x00
"SPI","result",0.80186519,0.00078075,0xDF,0x00
"SPI","result",0.81412297,0.00078074,0x00,0x00
"SPI","result",0.81721036,0.00078075,0x38,0x00
"SPI","result",0.82027927,0.00078075,0xF1,0x00
"SPI","result",0.82334755,0.00078075,0xB9,0x00
"SPI","result",0.82641665,0.00078074,0xF1,0x00
"SPI","result",0.8294853,0.00078076,0x57,0x00
"SPI","result",0.83255422,0.00078074,0xC1,0x00
"SPI","result",0.83562319,0.00078074,0x49,0x00
"SPI","result",0.83869316,0.00078075,0x01,0x00
"SPI","result",0.84176107,0.00078074,0xDF,0x00
"SPI","result",0.85401791,0.00078074,0x00,0x00
"SPI","result",0.85710636,0.00078075,0x38,0x00
"SPI","result",0.86017489,0.00078075,0xF1,0x00
"SPI","result",0.86324349,0.00078075,0xB9,0x00
"SPI","result",0.86631221,0.00078075,0xF1,0x00
"SPI","result",0.86938106,0.00078075,0x57,0x00
"SPI","result",0.87245016,0.00078074,0xC1,0x00
"SPI","result",0.87551901,0.00078074,0x49,0x00
"SPI","result",0.87858847,0.00078075,0x01,0x00
"SPI","result",0.88165669,0.00078075,0xDF,0x00
"SPI","result",0.89391385,0.00078074,0x00,0x00
"SPI","result",0.89700124,0.00078075,0x38,0x00
"SPI","result",0.90007021,0.00078075,0xF1,0x00
"SPI","result",0.90313937,0.00078074,0xB9,0x00
"SPI","result",0.90620884,0.00078075,0xF1,0x00
"SPI","result",0.90927775,0.00078075,0x57,0x00
"SPI","result",0.91234628,0.00078075,0xC1,0x00
"SPI","result",0.91541488,0.00078074,0x49,0x00
"SPI","result",0.91848379,0.00078075,0x01,0x00
"SPI","result",0.9215527,0.00078074,0xDF,0x00
"SPI","result",0.93382253,0.00078074,0x00,0x00
"SPI","result",0.93689767,0.00078076,0x38,0x00
"SPI","result",0.93996615,0.00078075,0xF1,0x00
"SPI","result",0.94303531,0.00078074,0xB9,0x00
"SPI","result",0.94610434,0.00078075,0xF1,0x00
"SPI","result",0.94917306,0.00078075,0x57,0x00
"SPI","result",0.95224284,0.00078075,0xC1,0x00
"SPI","result",0.95531069,0.00078075,0x49,0x00
"SPI","result",0.95838098,0.00078075,0x01,0x00
"SPI","result",0.96144876,0.00078074,0xDF,0x00
"SPI","result",0.97370648,0.00078074,0x00,0x00
"SPI","result",0.97679293,0.00078075,0x38,0x00
"SPI","result",0.97986209,0.00078075,0xF1,0x00
"SPI","result",0.98293137,0.00078075,0xB9,0x00
"SPI","result",0.98599959,0.00078075,0xF1,0x00
"SPI","result",0.98906956,0.00078076,0x57,0x00
"SPI","result",0.9921381,0.00078074,0xC1,0x00
"SPI","result",0.99520751,0.00078074,0x49,0x00
"SPI","result",0.99827535,0.00078075,0x01,0x00
"SPI","result",1.00134426,0.00078075,0xDF,0x00
"SPI","result",1.01360148,0.00078075,0x00,0x00
"SPI","result",1.01668868,0.00078075,0x38,0x00
"SPI","result",1.01975765,0.00078076,0xF1,0x00
"SPI","result",1.022827,0.00078074,0xB9,0x00
"SPI","result",1.02589653,0.00078075,0xF1,0x00
"SPI","result",1.02896444,0.00078075,0x57,0x00
"SPI","result",1.03203329,0.00078074,0xC1,0x00
"SPI","result",1.03510276,0.00078074,0x49,0x00
"SPI","result",1.03817235,0.00078075,0x01,0x00
"SPI","result",1.0412402,0.00078075,0xDF,0x00
"SPI","result",1.05349717,0.00078075,0x00,0x00
"SPI","result",1.05658456,0.00078075,0x38,0x00
"SPI","result",1.05965391,0.00078075,0xF1,0x00
"SPI","result",1.06272262,0.00078075,0xB9,0x00
"SPI","result",1.06579204,0.00078074,0xF1,0x00
"SPI","result",1.06886032,0.00078075,0x57,0x00
"SPI","result",1.0719296,0.00078075,0xC1,0x00
"SPI","result",1.07501955,0.00078075,0x49,0x00
"SPI","result",1.07806723,0.00078076,0x01,0x00
"SPI","result",1.08113671,0.00078074,0xDF,0x00
"SPI","result",1.09339311,0.00078074,0x00,0x00
"SPI","result",1.09648062,0.00078076,0x38,0x00
"SPI","result",1.09954928,0.00078076,0xF1,0x00
"SPI","result",1.1026185,0.00078075,0xB9,0x00
"SPI","result",1.10568704,0.00078074,0xF1,0x00
"SPI","result",1.10875595,0.00078075,0x57,0x00
"SPI","result",1.11182529,0.00078075,0xC1,0x00
"SPI","result",1.11489408,0.00078074,0x49,0x00
"SPI","result",1.11796448,0.00078076,0x01,0x00
"SPI","result",1.12103177,0.00078075,0xDF,0x00
"SPI","result",1.13328862,0.00078074,0x00,0x00
"SPI","result",1.13637619,0.00078075,0x38,0x00
"SPI","result",1.13944504,0.00078075,0xF1,0x00
"SPI","result",1.14251394,0.00078075,0xB9,0x00
"SPI","result",1.14558292,0.00078074,0xF1,0x00
"SPI","result",1.14865176,0.00078075,0x57,0x00
"SPI","result",1.15172073,0.00078075,0xC1,0x00
"SPI","result",1.15479077,0.00078074,0x49,0x00
"SPI","result",1.15785849,0.00078075,0x01,0x00
"SPI","result",1.16092808,0.00078075,0xDF,0x00
"SPI","result",1.17318436,0.00078075,0x00,0x00
"SPI","result",1.17627213,0.00078075,0x38,0x00
"SPI","result",1.17934098,0.00078075,0xF1,0x00
"SPI","result",1.18240995,0.00078074,0xB9,0x00
"SPI","result",1.18547867,0.00078074,0xF1,0x00
"SPI","result",1.18854789,0.00078075,0x57,0x00
"SPI","result",1.19161724,0.00078074,0xC1,0x00
"SPI","result",1.19469083,0.00078074,0x49,0x00
"SPI","result",1.19775468,0.00078075,0x01,0x00
"SPI","result",1.20082333,0.00078076,0xDF,0x00
"SPI","result",1.21308018,0.00078075,0x00,0x00
"SPI","result",1.21616794,0.00078075,0x38,0x00
"SPI","result",1.21923692,0.00078075,0xF1,0x00
"SPI","result",1.22230588,0.00078075,0xB9,0x00
"SPI","result",1.2253748,0.00078074,0xF1,0x00
"SPI","result",1.22844345,0.00078076,0x57,0x00
"SPI","result",1.23151268,0.00078074,0xC1,0x00
"SPI","result",1.2345814,0.00078074,0x49,0x00
"SPI","result",1.23765018,0.00078075,0x01,0x00
"SPI","result",1.24071953,0.00078074,0xDF,0x00
"SPI","result",1.25297606,0.00078074,0x00,0x00
"SPI","result",1.25606364,0.00078074,0x38,0x00
"SPI","result",1.25913273,0.00078076,0xF1,0x00
"SPI","result",1.26220214,0.00078074,0xB9,0x00
"SPI","result",1.26527204,0.00078075,0xF1,0x00
"SPI","result",1.26833996,0.00078075,0x57,0x00
"SPI","result",1.27140818,0.00078074,0xC1,0x00
"SPI","result",1.27447833,0.00078075,0x49,0x00
"SPI","result",1.27754593,0.00078075,0x01,0x00
"SPI","result",1.28061503,0.00078075,0xDF,0x00
"SPI","result",1.29287193,0.00078075,0x00,0x00
"SPI","result",1.29595963,0.00078075,0x38,0x00
"SPI","result",1.29902898,0.00078076,0xF1,0x00
"SPI","result",1.30209776,0.00078075,0xB9,0x00
"SPI","result",1.30516611,0.00078075,0xF1,0x00
"SPI","result",1.30823508,0.00078075,0x57,0x00
"SPI","result",1.31130424,0.00078075,0xC1,0x00
"SPI","result",1.31437427,0.00078075,0x49,0x00
"SPI","result",1.31744175,0.00078075,0x01,0x00
"SPI","result",1.32051066,0.00078074,0xDF,0x00
"SPI","result",1.33276781,0.00078075,0x00,0x00
"SPI","result",1.33585526,0.00078075,0x38,0x00
"SPI","result",1.33892448,0.00078076,0xF1,0x00
"SPI","result",1.34199346,0.00078074,0xB9,0x00
"SPI","result",1.34506193,0.00078074,0xF1,0x00
"SPI","result",1.34813083,0.00078075,0x57,0x00
"SPI","result",1.35119974,0.00078075,0xC1,0x00
"SPI","result",1.3542694,0.00078075,0x49,0x00
"SPI","result",1.35733768,0.00078076,0x01,0x00
"SPI","result",1.36040647,0.00078075,0xDF,0x00
"SPI","result",1.37266344,0.00078074,0x00,0x00
"SPI","result",1.3757512,0.00078075,0x38,0x00
"SPI","result",1.3788203,0.00078075,0xF1,0x00
"SPI","result",1.38188895,0.00078075,0xB9,0x00
"SPI","result",1.38495774,0.00078075,0xF1,0x00
"SPI","result",1.38802721,0.00078075,0x57,0x00
"SPI","result",1.39109555,0.00078075,0xC1,0x00
"SPI","result",1.39416453,0.00078074,0x49,0x00
"SPI","result",1.39723337,0.00078076,0x01,0x00
"SPI","result",1.40030241,0.00078075,0xDF,0x00
"SPI","result",1.41255925,0.00078075,0x00,0x00
"SPI","result",1.41564726,0.00078075,0x38,0x00
"SPI","result",1.4187158,0.00078076,0xF1,0x00
"SPI","result",1.42178502,0.00078075,0xB9,0x00
"SPI","result",1.42485399,0.00078075,0xF1,0x00
"SPI","result",1.42792315,0.00078075,0x57,0x00
"SPI","result",1.43099206,0.00078075,0xC1,0x00
"SPI","result",1.43406072,0.00078074,0x49,0x00
"SPI","result",1.43712919,0.00078075,0x01,0x00
"SPI","result",1.44019823,0.00078074,0xDF,0x00
"SPI","result",1.45245512,0.00078076,0x00,0x00
"SPI","result",1.45554289,0.00078075,0x38,0x00
"SPI","result",1.45861155,0.00078076,0xF1,0x00
"SPI","result",1.4616807,0.00078075,0xB9,0x00
"SPI","result",1.46475006,0.00078074,0xF1,0x00
"SPI","result",1.46781946,0.00078075,0x57,0x00
"SPI","result",1.47088738,0.00078074,0xC1,0x00
"SPI","result",1.4739561,0.00078074,0x49,0x00
"SPI","result",1.47702544,0.00078075,0x01,0x00
"SPI","result",1.4800941,0.00078075,0xDF,0x00
"SPI","result",1.49235113,0.00078075,0x00,0x00
"SPI","result",1.49543852,0.00078074,0x38,0x00
"SPI","result",1.49850793,0.00078075,0xF1,0x00
"SPI","result",1.50157646,0.00078075,0xB9,0x00
"SPI","result",1.50464556,0.00078075,0xF1,0x00
"SPI","result",1.50771409,0.00078075,0x57,0x00
"SPI","result",1.51078306,0.00078075,0xC1,0x00
"SPI","result",1.51385222,0.00078075,0x49,0x00
"SPI","result",1.51692113,0.00078076,0x01,0x00
"SPI","result",1.51998985,0.00078076,0xDF,0x00
"SPI","result",1.53224732,0.00078074,0x00,0x00
"SPI","result",1.53533427,0.00078075,0x38,0x00
"SPI","result",1.53840324,0.00078076,0xF1,0x00
"SPI","result",1.54147278,0.00078075,0xB9,0x00
"SPI","result",1.54454112,0.00078075,0xF1,0x00
"SPI","result",1.5476101,0.00078075,0x57,0x00
"SPI","result",1.550679,0.00078075,0xC1,0x00
"SPI","result",1.5537481,0.00078075,0x49,0x00
"SPI","result",1.5568167,0.00078075,0x01,0x00
"SPI","result",1.55988567,0.00078075,0xDF,0x00
"SPI","result",1.57214251,0.00078075,0x00,0x00
"SPI","result",1.57523096,0.00078074,0x38,0x00
"SPI","result",1.5783008,0.00078076,0xF1,0x00
"SPI","result",1.58136809,0.00078075,0xB9,0x00
"SPI","result",1.58443681,0.00078075,0xF1,0x00
"SPI","result",1.58750572,0.00078075,0x57,0x00
"SPI","result",1.59057519,0.00078075,0xC1,0x00
"SPI","result",1.59364435,0.00078075,0x49,0x00
"SPI","result",1.59671257,0.00078075,0x01,0x00
"SPI","result",1.59978148,0.00078075,0xDF,0x00
"SPI","result",1.61203957,0.00078075,0x00,0x00
"SPI","result",1.61512627,0.00078075,0x38,0x00
"SPI","result",1.61819531,0.00078075,0xF1,0x00
"SPI","result",1.62126528,0.00078075,0xB9,0x00
"SPI","result",1.62433294,0.00078074,0xF1,0x00
"SPI","result",1.62740159,0.00078076,0x57,0x00
"SPI","result",1.63047101,0.00078074,0xC1,0x00
"SPI","result",1.63353935,0.00078074,0x49,0x00
"SPI","result",1.63660901,0.00078075,0x01,0x00
"SPI","result",1.63967723,0.00078076,0xDF,0x00
"SPI","result",1.65193413,0.00078075,0x00,0x00
"SPI","result",1.65502258,0.00078076,0x38,0x00
"SPI","result",1.65809212,0.00078075,0xF1,0x00
"SPI","result",1.6611599,0.00078076,0xB9,0x00
"SPI","result",1.66422988,0.00078074,0xF1,0x00
"SPI","result",1.66729741,0.00078075,0x57,0x00
"SPI","result",1.67036657,0.00078075,0xC1,0x00
"SPI","result",1.67343548,0.00078074,0x49,0x00
"SPI","result",1.67650463,0.00078075,0x01,0x00
"SPI","result",1.67957311,0.00078075,0xDF,0x00
"SPI","result",1.69183045,0.00078074,0x00,0x00
"SPI","result",1.69492239,0.00078075,0x38,0x00
"SPI","result",1.69798669,0.00078075,0xF1,0x00
"SPI","result",1.70105647,0.00078074,0xB9,0x00
"SPI","result",1.70412525,0.00078075,0xF1,0x00
