name,type,start_time,duration,"mosi","miso"
"SPI","result",0.00353768,0.00078063,0x01,0x00
"SPI","result",0.006625,0.00078062,0x38,0x00
"SPI","result",0.00969388,0.00078063,0x1E,0x00
"SPI","result",0.01276915,0.00078062,0x3B,0x00
"SPI","result",0.01583192,0.00078062,0x1F,0x00
"SPI","result",0.01890193,0.00078063,0xD5,0x00
"SPI","result",0.0219697,0.00078062,0x07,0x00
"SPI","result",0.02503865,0.00078063,0x01,0x00
"SPI","result",0.0281078,0.00078062,0x01,0x00
"SPI","result",0.03117744,0.00078062,0xD3,0x00
"SPI","result",0.04343396,0.00078063,0x01,0x00
"SPI","result",0.04652139,0.00078062,0x38,0x00
"SPI","result",0.04959072,0.00078062,0x1E,0x00
"SPI","result",0.05265961,0.00078063,0x3B,0x00
"SPI","result",0.05572826,0.00078062,0x1F,0x00
"SPI","result",0.05879752,0.00078062,0xD5,0x00
"SPI","result",0.06186597,0.00078062,0x07,0x00
"SPI","result",0.0649353,0.00078063,0x01,0x00
"SPI","result",0.06800463,0.00078062,0x01,0x00
"SPI","result",0.07107358,0.00078063,0xD3,0x00
"SPI","result",0.08333011,0.00078062,0x01,0x00
"SPI","result",0.08641797,0.00078063,0x38,0x00
"SPI","result",0.08948675,0.00078062,0x1E,0x00
"SPI","result",0.09255564,0.00078062,0x3B,0x00
"SPI","result",0.09562459,0.00078062,0x1F,0x00
"SPI","result",0.09869367,0.00078062,0xD5,0x00
"SPI","result",0.10176256,0.00078062,0x07,0x00
"SPI","result",0.10483145,0.00078063,0x01,0x00
"SPI","result",0.10790047,0.00078062,0x01,0x00
"SPI","result",0.11096942,0.00078063,0xD3,0x00
"SPI","result",0.12322669,0.00078063,0x01,0x00
"SPI","result",0.12631588,0.00078062,0x38,0x00
"SPI","result",0.12938321,0.00078062,0x1E,0x00
"SPI","result",0.13245235,0.00078062,0x3B,0x00
"SPI","result",0.13552105,0.00078062,0x1F,0x00
"SPI","result",0.13859,0.00078063,0xD5,0x00
"SPI","result",0.14165908,0.00078063,0x07,0x00
"SPI","result",0.14472785,0.00078062,0x01,0x00
"SPI","result",0.14779718,0.00078062,0x01,0x00
"SPI","result",0.15086569,0.00078063,0xD3,0x00
"SPI","result",0.16312315,0.00078063,0x01,0x00
"SPI","result",0.16621102,0.00078063,0x38,0x00
"SPI","result",0.16927998,0.00078062,0x1E,0x00
"SPI","result",0.17234837,0.00078063,0x3B,0x00
"SPI","result",0.17541757,0.00078063,0x1F,0x00
"SPI","result",0.17848647,0.00078062,0xD5,0x00
"SPI","result",0.18155567,0.00078062,0x07,0x00
"SPI","result",0.18462425,0.00078062,0x01,0x00
"SPI","result",0.18769314,0.00078062,0x01,0x00
"SPI","result",0.19076266,0.00078062,0xD3,0x00
"SPI","result",0.20301924,0.00078062,0x01,0x00
"SPI","result",0.20610724,0.00078062,0x38,0x00
"SPI","result",0.20917706,0.00078063,0x1E,0x00
"SPI","result",0.21224508,0.00078062,0x3B,0x00
"SPI","result",0.2153141,0.00078062,0x1F,0x00
"SPI","result",0.21838311,0.00078062,0xD5,0x00
"SPI","result",0.22145213,0.00078062,0x07,0x00
"SPI","result",0.22452083,0.00078063,0x01,0x00
"SPI","result",0.22758954,0.00078062,0x01,0x00
"SPI","result",0.23065887,0.00078062,0xD3,0x00
"SPI","result",0.24291564,0.00078062,0x01,0x00
"SPI","result",0.24600339,0.00078061,0x38,0x00
"SPI","result",0.24907259,0.00078062,0x1E,0x00
"SPI","result",0.25214142,0.00078062,0x3B,0x00
"SPI","result",0.25521024,0.00078063,0x1F,0x00
"SPI","result",0.25827913,0.00078063,0xD5,0x00
"SPI","result",0.26134815,0.00078062,0x07,0x00
"SPI","result",0.26441729,0.00078063,0x01,0x00
"SPI","result",0.26748612,0.00078062,0x01,0x00
"SPI","result",0.2705552,0.00078062,0xD3,0x00
"SPI","result",0.28281203,0.00078063,0x01,0x00
"SPI","result",0.28589972,0.00078062,0x38,0x00
"SPI","result",0.28896899,0.00078062,0x1E,0x00
"SPI","result",0.29203807,0.00078061,0x3B,0x00
"SPI","result",0.29510683,0.00078062,0x1F,0x00
"SPI","result",0.29817554,0.00078062,0xD5,0x00
"SPI","result",0.30124468,0.00078062,0x07,0x00
"SPI","result",0.30431344,0.00078063,0x01,0x00
"SPI","result",0.30738333,0.00078063,0x01,0x00
"SPI","result",0.31045129,0.00078062,0xD3,0x00
"SPI","result",0.32270931,0.00078062,0x01,0x00
"SPI","result",0.3257963,0.00078063,0x38,0x00
"SPI","result",0.32886507,0.00078062,0x1E,0x00
"SPI","result",0.3319344,0.00078062,0x3B,0x00
"SPI","result",0.33500323,0.00078062,0x1F,0x00
"SPI","result",0.33807243,0.00078062,0xD5,0x00
"SPI","result",0.34114182,0.00078063,0x07,0x00
"SPI","result",0.3442099,0.00078063,0x01,0x00
"SPI","result",0.34727892,0.00078062,0x01,0x00
"SPI","result",0.35034787,0.00078062,0xD3,0x00
"SPI","result",0.36260489,0.00078063,0x01,0x00
"SPI","result",0.36569258,0.00078062,0x38,0x00
"SPI","result",0.36876278,0.00078062,0x1E,0x00
"SPI","result",0.37183042,0.00078062,0x3B,0x00
"SPI","result",0.37489956,0.00078063,0x1F,0x00
"SPI","result",0.37796827,0.00078062,0xD5,0x00
"SPI","result",0.38103722,0.00078062,0x07,0x00
"SPI","result",0.38410667,0.00078063,0x01,0x00
"SPI","result",0.38717519,0.00078062,0x01,0x00
"SPI","result",0.39024408,0.00078062,0xD3,0x00
"SPI","result",0.40250129,0.00078063,0x01,0x00
"SPI","result",0.40558941,0.00078063,0x38,0x00
"SPI","result",0.4086578,0.00078063,0x1E,0x00
"SPI","result",0.41172688,0.00078062,0x3B,0x00
"SPI","result",0.41479596,0.00078062,0x1F,0x00
"SPI","result",0.41786498,0.00078062,0xD5,0x00
"SPI","result",0.42093362,0.00078062,0x07,0x00
"SPI","result",0.42400307,0.00078062,0x01,0x00
"SPI","result",0.42707203,0.00078062,0x01,0x00
"SPI","result",0.43014073,0.00078062,0xD3,0x00
"SPI","result",0.44239763,0.00078062,0x01,0x00
"SPI","result",0.44548544,0.00078062,0x38,0x00
"SPI","result",0.44855514,0.00078062,0x1E,0x00
"SPI","result",0.45162359,0.00078062,0x3B,0x00
"SPI","result",0.45469336,0.00078062,0x1F,0x00
"SPI","result",0.45776132,0.00078061,0xD5,0x00
"SPI","result",0.46083083,0.00078062,0x07,0x00
"SPI","result",0.46389922,0.00078062,0x01,0x00
"SPI","result",0.46696842,0.00078062,0x01,0x00
"SPI","result",0.47003844,0.00078062,0xD3,0x00
"SPI","result",0.48229452,0.00078063,0x01,0x00
"SPI","result",0.48538202,0.00078062,0x38,0x00
"SPI","result",0.48845079,0.00078062,0x1E,0x00
"SPI","result",0.49151968,0.00078062,0x3B,0x00
"SPI","result",0.49458857,0.00078062,0x1F,0x00
"SPI","result",0.49765746,0.00078062,0xD5,0x00
"SPI","result",0.50072648,0.00078062,0x07,0x00
"SPI","result",0.50379537,0.00078062,0x01,0x00
"SPI","result",0.5068647,0.00078062,0x01,0x00
"SPI","result",0.50993371,0.00078062,0xD3,0x00
"SPI","result",0.52219042,0.00078063,0x01,0x00
"SPI","result",0.52527836,0.00078062,0x38,0x00
"SPI","result",0.52834725,0.00078062,0x1E,0x00
"SPI","result",0.5314162,0.00078062,0x3B,0x00
"SPI","result",0.53448616,0.00078062,0x1F,0x00
"SPI","result",0.53755399,0.00078062,0xD5,0x00
"SPI","result",0.540624,0.00078062,0x07,0x00
"SPI","result",0.54369183,0.00078062,0x01,0x00
"SPI","result",0.54676084,0.00078063,0x01,0x00
"SPI","result",0.54982968,0.00078062,0xD3,0x00
"SPI","result",0.56208688,0.00078063,0x01,0x00
"SPI","result",0.56517494,0.00078063,0x38,0x00
"SPI","result",0.56824339,0.00078063,0x1E,0x00
"SPI","result",0.57131235,0.00078062,0x3B,0x00
"SPI","result",0.57438286,0.00078063,0x1F,0x00
"SPI","result",0.57745032,0.00078062,0xD5,0x00
"SPI","result",0.58051921,0.00078062,0x07,0x00
"SPI","result",0.58358835,0.00078063,0x01,0x00
"SPI","result",0.58665768,0.00078063,0x01,0x00
"SPI","result",0.58972764,0.00078062,0xD3,0x00
"SPI","result",0.60198353,0.00078063,0x01,0x00
"SPI","result",0.60507128,0.00078062,0x38,0x00
"SPI","result",0.60814011,0.00078062,0x1E,0x00
"SPI","result",0.61120875,0.00078062,0x3B,0x00
"SPI","result",0.61427771,0.00078062,0x1F,0x00
"SPI","result",0.61734822,0.00078062,0xD5,0x00
"SPI","result",0.62041573,0.00078063,0x07,0x00
"SPI","result",0.62348463,0.00078062,0x01,0x00
"SPI","result",0.6265537,0.00078063,0x01,0x00
"SPI","result",0.62962247,0.00078062,0xD3,0x00
"SPI","result",0.6418798,0.00078063,0x01,0x00
"SPI","result",0.6449673,0.00078063,0x38,0x00
"SPI","result",0.64803694,0.00078063,0x1E,0x00
"SPI","result",0.65110533,0.00078063,0x3B,0x00
"SPI","result",0.6541741,0.00078063,0x1F,0x00
"SPI","result",0.65724318,0.00078062,0xD5,0x00
"SPI","result",0.66031251,0.00078062,0x07,0x00
"SPI","result",0.66338133,0.00078063,0x01,0x00
"SPI","result",0.66645016,0.00078063,0x01,0x00
"SPI","result",0.66952018,0.00078062,0xD3,0x00
"SPI","result",0.68177639,0.00078062,0x01,0x00
"SPI","result",0.6848637,0.00078063,0x38,0x00
"SPI","result",0.68793259,0.00078062,0x1E,0x00
"SPI","result",0.69100285,0.00078062,0x3B,0x00
"SPI","result",0.694072,0.00078062,0x1F,0x00
"SPI","result",0.69714051,0.00078062,0xD5,0x00
"SPI","result",0.70020847,0.00078062,0x07,0x00
"SPI","result",0.70327736,0.00078063,0x01,0x00
"SPI","result",0.7063465,0.00078063,0x01,0x00
"SPI","result",0.70941533,0.00078062,0xD3,0x00
"SPI","result",0.72167279,0.00078062,0x01,0x00
"SPI","result",0.7247601,0.00078062,0x38,0x00
"SPI","result",0.72782905,0.00078062,0x1E,0x00
"SPI","result",0.73089813,0.00078062,0x3B,0x00
"SPI","result",0.73396727,0.00078062,0x1F,0x00
"SPI","result",0.73703654,0.00078062,0xD5,0x00
"SPI","result",0.7401048,0.00078063,0x07,0x00
"SPI","result",0.74317388,0.00078063,0x01,0x00
"SPI","result",0.74624271,0.00078063,0x01,0x00
"SPI","result",0.74931272,0.00078063,0xD3,0x00
"SPI","result",0.76156912,0.00078063,0x01,0x00
"SPI","result",0.76465643,0.00078063,0x38,0x00
"SPI","result",0.76772539,0.00078062,0x1E,0x00
"SPI","result",0.77079465,0.00078062,0x3B,0x00
"SPI","result",0.77386972,0.00078062,0x1F,0x00
"SPI","result",0.77693256,0.00078062,0xD5,0x00
"SPI","result",0.78000126,0.00078063,0x07,0x00
"SPI","result",0.78307015,0.00078063,0x01,0x00
"SPI","result",0.78613954,0.00078062,0x01,0x00
"SPI","result",0.78920825,0.00078062,0xD3,0x00
"SPI","result",0.80146564,0.00078063,0x01,0x00
"SPI","result",0.80455289,0.00078063,0x38,0x00
"SPI","result",0.80762253,0.00078062,0x1E,0x00
"SPI","result",0.8106908,0.00078062,0x3B,0x00
"SPI","result",0.81376038,0.00078062,0x1F,0x00
"SPI","result",0.81682871,0.00078062,0xD5,0x00
"SPI","result",0.81989791,0.00078062,0x07,0x00
"SPI","result",0.82296686,0.00078063,0x01,0x00
"SPI","result",0.82603563,0.00078062,0x01,0x00
"SPI","result",0.82910452,0.00078063,0xD3,0x00
"SPI","result",0.84136173,0.00078062,0x01,0x00
"SPI","result",0.84444935,0.00078063,0x38,0x00
"SPI","result",0.8475198,0.00078063,0x1E,0x00
"SPI","result",0.85058732,0.00078062,0x3B,0x00
"SPI","result",0.85365615,0.00078063,0x1F,0x00
"SPI","result",0.85672523,0.00078062,0xD5,0x00
"SPI","result",0.85979406,0.00078062,0x07,0x00
"SPI","result",0.86286332,0.00078063,0x01,0x00
"SPI","result",0.86593209,0.00078062,0x01,0x00
"SPI","result",0.86900098,0.00078062,0xD3,0x00
"SPI","result",0.88126187,0.00078063,0x01,0x00
"SPI","result",0.88434581,0.00078062,0x38,0x00
"SPI","result",0.8874147,0.00078062,0x1E,0x00
"SPI","result",0.89048403,0.00078062,0x3B,0x00
"SPI","result",0.8935528,0.00078062,0x1F,0x00
"SPI","result",0.89662168,0.00078063,0xD5,0x00
"SPI","result",0.8996912,0.00078062,0x07,0x00
"SPI","result",0.90275991,0.00078062,0x01,0x00
"SPI","result",0.90582861,0.00078062,0x01,0x00
"SPI","result",0.90889738,0.00078062,0xD3,0x00
"SPI","result",0.92115471,0.00078062,0x01,0x00
"SPI","result",0.92424233,0.00078063,0x38,0x00
"SPI","result",0.92731098,0.00078061,0x1E,0x00
"SPI","result",0.93038012,0.00078061,0x3B,0x00
"SPI","result",0.93344894,0.00078063,0x1F,0x00
"SPI","result",0.9365179,0.00078062,0xD5,0x00
"SPI","result",0.93958679,0.00078062,0x07,0x00
"SPI","result",0.9426558,0.00078063,0x01,0x00
"SPI","result",0.94572469,0.00078063,0x01,0x00
"SPI","result",0.94879377,0.00078062,0xD3,0x00
"SPI","result",0.96105123,0.00078062,0x01,0x00
"SPI","result",0.96413842,0.00078062,0xFE,0x00
"SPI","result",0.96720737,0.00078062,0xB4,0x00
"SPI","result",0.97027801,0.00078062,0x3B,0x00
"SPI","result",0.97334527,0.00078064,0x1F,0x00
"SPI","result",0.97641442,0.00078063,0xDF,0x00
"SPI","result",0.97948325,0.00078063,0x07,0x00
"SPI","result",0.9825522,0.00078063,0x01,0x00
"SPI","result",0.98562147,0.00078063,0x01,0x00
"SPI","result",0.98869017,0.00078063,0xB5,0x00
"SPI","result",1.00094725,0.00078063,0x01,0x00
"SPI","result",1.00403506,0.00078063,0xFE,0x00
"SPI","result",1.00710377,0.00078062,0xB4,0x00
"SPI","result",1.01017272,0.00078062,0x3B,0x00
"SPI","result",1.01324243,0.00078062,0x1F,0x00
"SPI","result",1.01631069,0.00078062,0xDF,0x00
"SPI","result",1.01937964,0.00078063,0x07,0x00
"SPI","result",1.02244879,0.00078062,0x01,0x00
"SPI","result",1.02551761,0.00078063,0x01,0x00
"SPI","result",1.02858657,0.00078062,0xB5,0x00
"SPI","result",1.04084365,0.00078062,0x01,0x00
"SPI","result",1.04393121,0.00078063,0xFE,0x00
"SPI","result",1.04700085,0.00078062,0xB4,0x00
"SPI","result",1.05006955,0.00078062,0x3B,0x00
"SPI","result",1.05313938,0.00078062,0x1F,0x00
"SPI","result",1.05620721,0.00078062,0xDF,0x00
"SPI","result",1.05927617,0.00078062,0x07,0x00
"SPI","result",1.06234562,0.00078062,0x01,0x00
"SPI","result",1.06541426,0.00078062,0x01,0x00
"SPI","result",1.06848428,0.00078062,0xB5,0x00
"SPI","result",1.0807403,0.00078062,0x01,0x00
"SPI","result",1.08382767,0.00078062,0xFE,0x00
"SPI","result",1.08689663,0.00078061,0xB4,0x00
"SPI","result",1.08996551,0.00078062,0x3B,0x00
"SPI","result",1.09304115,0.00078062,0x1F,0x00
"SPI","result",1.09610342,0.00078062,0xDF,0x00
"SPI","result",1.09917312,0.00078062,0x07,0x00
"SPI","result",1.10224164,0.00078062,0x01,0x00
"SPI","result",1.10531047,0.00078063,0x01,0x00
"SPI","result",1.10837923,0.00078063,0xB5,0x00
"SPI","result",1.12063651,0.00078062,0x01,0x00
"SPI","result",1.12372444,0.00078062,0xFE,0x00
"SPI","result",1.12679296,0.00078062,0xB4,0x00
"SPI","result",1.12986191,0.00078062,0x3B,0x00
"SPI","result",1.13293092,0.00078063,0x1F,0x00
"SPI","result",1.13599981,0.00078063,0xDF,0x00
"SPI","result",1.13906983,0.00078062,0x07,0x00
"SPI","result",1.14213816,0.00078062,0x01,0x00
"SPI","result",1.14520668,0.00078062,0x01,0x00
"SPI","result",1.14827669,0.00078062,0xB5,0x00
"SPI","result",1.16053284,0.00078062,0x01,0x00
"SPI","result",1.1636204,0.00078062,0xFE,0x00
"SPI","result",1.16669004,0.00078062,0xB4,0x00
"SPI","result",1.16975887,0.00078062,0x3B,0x00
"SPI","result",1.17282776,0.00078062,0x1F,0x00
"SPI","result",1.17589634,0.00078062,0xDF,0x00
"SPI","result",1.17896529,0.00078062,0x07,0x00
"SPI","result",1.18203431,0.00078062,0x01,0x00
"SPI","result",1.18510307,0.00078063,0x01,0x00
"SPI","result",1.18817215,0.00078063,0xB5,0x00
"SPI","result",1.20042942,0.00078063,0x01,0x00
"SPI","result",1.20351685,0.00078063,0xFE,0x00
"SPI","result",1.20658675,0.00078062,0xB4,0x00
"SPI","result",1.20965533,0.00078062,0x3B,0x00
"SPI","result",1.21272365,0.00078063,0x1F,0x00
"SPI","result",1.21579311,0.00078062,0xDF,0x00
"SPI","result",1.21886312,0.00078062,0x07,0x00
"SPI","result",1.22193151,0.00078063,0x01,0x00
"SPI","result",1.22499947,0.00078062,0x01,0x00
"SPI","result",1.2280688,0.00078062,0xB5,0x00
"SPI","result",1.24032563,0.00078062,0x01,0x00
"SPI","result",1.24341325,0.00078063,0xF4,0x00
"SPI","result",1.24648221,0.00078062,0xB4,0x00
"SPI","result",1.24955135,0.00078062,0x3B,0x00
"SPI","result",1.25262137,0.00078061,0x1F,0x00
"SPI","result",1.255689,0.00078063,0xDF,0x00
"SPI","result",1.25875796,0.00078062,0x07,0x00
"SPI","result",1.2618276,0.00078062,0x01,0x00
"SPI","result",1.26489612,0.00078062,0x01,0x00
"SPI","result",1.26796488,0.00078062,0xBF,0x00
"SPI","result",1.28022209,0.00078062,0x01,0x00
"SPI","result",1.28330965,0.00078062,0xF4,0x00
"SPI","result",1.28638023,0.00078062,0xB4,0x00
"SPI","result",1.2894478,0.00078063,0x3B,0x00
"SPI","result",1.29251807,0.00078062,0x1F,0x00
"SPI","result",1.29558546,0.00078062,0xDF,0x00
"SPI","result",1.29865548,0.00078062,0x07,0x00
"SPI","result",1.30172393,0.00078062,0x01,0x00
"SPI","result",1.30479232,0.00078062,0x01,0x00
"SPI","result",1.30786121,0.00078062,0xBF,0x00
"SPI","result",1.32011848,0.00078062,0x01,0x00
"SPI","result",1.32320604,0.00078063,0xF4,0x00
"SPI","result",1.32627493,0.00078063,0xB4,0x00
"SPI","result",1.32934389,0.00078062,0x3B,0x00
"SPI","result",1.3324134,0.00078063,0x1F,0x00
"SPI","result",1.33548272,0.00078064,0xDF,0x00
"SPI","result",1.33855169,0.00078062,0x07,0x00
"SPI","result",1.34162014,0.00078062,0x01,0x00
"SPI","result",1.34468872,0.00078063,0x01,0x00
"SPI","result",1.34775767,0.00078063,0xBF,0x00
"SPI","result",1.360015,0.00078063,0x01,0x00
"SPI","result",1.36310256,0.00078063,0xF4,0x00
"SPI","result",1.36617196,0.00078062,0xB4,0x00
"SPI","result",1.36924103,0.00078063,0x3B,0x00
"SPI","result",1.3723098,0.00078062,0x1F,0x00
"SPI","result",1.37537825,0.00078063,0xDF,0x00
"SPI","result",1.37844733,0.00078062,0x07,0x00
"SPI","result",1.38151628,0.00078063,0x01,0x00
"SPI","result",1.3845853,0.00078063,0x01,0x00
"SPI","result",1.38765469,0.00078062,0xBF,0x00
"SPI","result",1.3999114,0.00078062,0x01,0x00
"SPI","result",1.40299896,0.00078063,0xF4,0x00
"SPI","result",1.40606823,0.00078062,0xB4,0x00
"SPI","result",1.40913824,0.00078062,0x3B,0x00
"SPI","result",1.4122135,0.00078062,0x1F,0x00
"SPI","result",1.41527522,0.00078061,0xDF,0x00
"SPI","result",1.41834404,0.00078062,0x07,0x00
"SPI","result",1.42141274,0.00078062,0x01,0x00
"SPI","result",1.42448182,0.00078063,0x01,0x00
"SPI","result",1.42755046,0.00078062,0xBF,0x00
"SPI","result",1.43980848,0.00078063,0x01,0x00
"SPI","result",1.44289529,0.00078064,0xF4,0x00
"SPI","result",1.44596456,0.00078063,0xB4,0x00
"SPI","result",1.44903326,0.00078063,0x3B,0x00
"SPI","result",1.4521029,0.00078063,0x1F,0x00
"SPI","result",1.45517098,0.00078063,0xDF,0x00
"SPI","result",1.45823994,0.00078062,0x07,0x00
"SPI","result",1.46130908,0.00078062,0x01,0x00
"SPI","result",1.46437809,0.00078063,0x01,0x00
"SPI","result",1.46744692,0.00078063,0xBF,0x00
"SPI","result",1.47970432,0.00078062,0x01,0x00
"SPI","result",1.48279312,0.00078063,0xF4,0x00
"SPI","result",1.48586107,0.00078063,0xB4,0x00
"SPI","result",1.48893004,0.00078061,0x3B,0x00
"SPI","result",1.49199849,0.00078062,0x1F,0x00
"SPI","result",1.49506738,0.00078062,0xDF,0x00
"SPI","result",1.49813639,0.00078062,0x07,0x00
"SPI","result",1.50120528,0.00078063,0x01,0x00
"SPI","result",1.50427455,0.00078062,0x01,0x00
"SPI","result",1.50734363,0.00078062,0xBF,0x00
"SPI","result",1.51960077,0.00078063,0x01,0x00
"SPI","result",1.52268802,0.00078063,0xF4,0x00
"SPI","result",1.52575735,0.00078063,0xB4,0x00
"SPI","result",1.52882593,0.00078063,0x3B,0x00
"SPI","result",1.53189526,0.00078062,0x1F,0x00
"SPI","result",1.53496383,0.00078064,0xDF,0x00
"SPI","result",1.53803298,0.00078062,0x07,0x00
"SPI","result",1.54110174,0.00078063,0x01,0x00
"SPI","result",1.54417069,0.00078064,0x01,0x00
"SPI","result",1.54723958,0.00078063,0xBF,0x00
"SPI","result",1.55949685,0.00078063,0x01,0x00
"SPI","result",1.56258448,0.00078063,0xFE,0x00
"SPI","result",1.56565356,0.00078062,0xBE,0x00
"SPI","result",1.56872232,0.00078063,0x3B,0x00
"SPI","result",1.57179165,0.00078063,0x1F,0x00
"SPI","result",1.57486072,0.00078064,0xD9,0x00
"SPI","result",1.57792924,0.00078063,0x07,0x00
"SPI","result",1.58099838,0.00078063,0x01,0x00
"SPI","result",1.58406709,0.00078062,0x01,0x00
"SPI","result",1.58713654,0.00078063,0xB9,0x00
"SPI","result",1.59939344,0.00078062,0x01,0x00
"SPI","result",1.60248075,0.00078062,0xFE,0x00
"SPI","result",1.60555032,0.00078063,0xBE,0x00
"SPI","result",1.60861865,0.00078063,0x3B,0x00
"SPI","result",1.61172263,0.00078063,0x1F,0x00
"SPI","result",1.61479721,0.00078062,0xD9,0x00
"SPI","result",1.61794676,0.00078063,0x07,0x00
"SPI","result",1.62089609,0.00078062,0x01,0x00
"SPI","result",1.62396504,0.00078063,0x01,0x00
"SPI","result",1.62703431,0.00078062,0xB9,0x00
"SPI","result",1.63928977,0.00078063,0x01,0x00
"SPI","result",1.6423772,0.00078063,0xFE,0x00
"SPI","result",1.64544616,0.00078062,0xBE,0x00
"SPI","result",1.64851536,0.00078062,0x3B,0x00
"SPI","result",1.65158494,0.00078062,0x1F,0x00
"SPI","result",1.65465333,0.00078062,0xD9,0x00
"SPI","result",1.65772204,0.00078061,0x07,0x00
"SPI","result",1.66079111,0.00078062,0x01,0x00
"SPI","result",1.66386,0.00078063,0x01,0x00
"SPI","result",1.66692889,0.00078063,0xB9,0x00
"SPI","result",1.67918754,0.00078062,0x01,0x00
"SPI","result",1.6822736,0.00078062,0xFE,0x00
"SPI","result",1.68534248,0.00078063,0xBE,0x00
"SPI","result",1.68841144,0.00078062,0x3B,0x00
"SPI","result",1.69148046,0.00078062,0x1F,0x00
"SPI","result",1.69454954,0.00078062,0xD9,0x00
"SPI","result",1.69761842,0.00078063,0x07,0x00
"SPI","result",1.70068751,0.00078062,0x01,0x00
"SPI","result",1.7037564,0.00078062,0x01,0x00
"SPI","result",1.70682516,0.00078062,0xB9,0x00
"SPI","result",1.71908237,0.00078062,0x01,0x00
"SPI","result",1.72217024,0.00078063,0xFE,0x00
"SPI","result",1.72523888,0.00078063,0xBE,0x00
"SPI","result",1.72830933,0.00078063,0x3B,0x00
"SPI","result",1.73137692,0.00078062,0x1F,0x00
"SPI","result",1.73444581,0.00078062,0xD9,0x00
"SPI","result",1.73751476,0.00078062,0x07,0x00
"SPI","result",1.74058428,0.00078062,0x01,0x00
"SPI","result",1.74365323,0.00078062,0x01,0x00
"SPI","result",1.74672318,0.00078062,0xB9,0x00
"SPI","result",1.75897882,0.00078063,0x01,0x00
"SPI","result",1.76206632,0.00078063,0xFE,0x00
"SPI","result",1.76513559,0.00078062,0xBE,0x00
"SPI","result",1.76820429,0.00078063,0x3B,0x00
"SPI","result",1.77127355,0.00078063,0x1F,0x00
"SPI","result",1.77434213,0.00078063,0xD9,0x00
"SPI","result",1.77741215,0.00078062,0x07,0x00
"SPI","result",1.7804801,0.00078063,0x01,0x00
"SPI","result",1.78354918,0.00078063,0x01,0x00
"SPI","result",1.78661795,0.00078062,0xB9,0x00
"SPI","result",1.79887559,0.00078063,0x01,0x00
"SPI","result",1.80196359,0.00078063,0xFE,0x00
"SPI","result",1.80503179,0.00078063,0xBE,0x00
"SPI","result",1.80810112,0.00078062,0x3B,0x00
"SPI","result",1.81116957,0.00078063,0x1F,0x00
"SPI","result",1.81423859,0.00078063,0xD9,0x00
"SPI","result",1.81730798,0.00078063,0x07,0x00
"SPI","result",1.82037643,0.00078063,0x01,0x00
"SPI","result",1.82344551,0.00078063,0x01,0x00
"SPI","result",1.82651447,0.00078062,0xB9,0x00
"SPI","result",1.83877161,0.00078063,0x01,0x00
"SPI","result",1.84186011,0.00078062,0xFE,0x00
"SPI","result",1.84492831,0.00078063,0xBE,0x00
"SPI","result",1.84799764,0.00078062,0x3B,0x00
"SPI","result",1.85106634,0.00078063,0x1F,0x00
"SPI","result",1.85413511,0.00078063,0xD9,0x00
"SPI","result",1.857204,0.00078062,0x07,0x00
"SPI","result",1.86027376,0.00078063,0x01,0x00
"SPI","result",1.86334197,0.00078062,0x01,0x00
"SPI","result",1.86641092,0.00078063,0xB9,0x00
"SPI","result",1.87866813,0.00078062,0x01,0x00
"SPI","result",1.8817555,0.00078063,0x62,0x00
"SPI","result",1.88482545,0.00078063,0xBE,0x00
"SPI","result",1.88789347,0.00078063,0x3B,0x00
"SPI","result",1.89096293,0.00078062,0x1F,0x00
"SPI","result",1.89403131,0.00078063,0xD9,0x00
"SPI","result",1.89710033,0.00078062,0x07,0x00
"SPI","result",1.90016935,0.00078062,0x01,0x00
"SPI","result",1.90323861,0.00078063,0x01,0x00
"SPI","result",1.90630719,0.00078062,0x25,0x00
"SPI","result",1.91856427,0.00078063,0x01,0x00
"SPI","result",1.92165208,0.00078063,0x62,0x00
"SPI","result",1.92472122,0.00078063,0xBE,0x00
"SPI","result",1.92779074,0.00078062,0x3B,0x00
"SPI","result",1.930865,0.00078062,0x1F,0x00
"SPI","result",1.93392827,0.00078062,0xD9,0x00
"SPI","result",1.93699666,0.00078062,0x07,0x00
"SPI","result",1.9400658,0.00078063,0x01,0x00
"SPI","result",1.94313481,0.00078063,0x01,0x00
"SPI","result",1.9462044,0.00078062,0x25,0x00
"SPI","result",1.9584616,0.00078063,0x01,0x00
"SPI","result",1.9615486,0.00078062,0x62,0x00
"SPI","result",1.96461768,0.00078062,0xBE,0x00
"SPI","result",1.96768769,0.00078062,0x3B,0x00
"SPI","result",1.97075533,0.00078062,0x1F,0x00
"SPI","result",1.97382516,0.00078063,0xD9,0x00
"SPI","result",1.97689312,0.00078062,0x07,0x00
"SPI","result",1.97996138,0.00078063,0x01,0x00
"SPI","result",1.98303127,0.00078062,0x01,0x00
"SPI","result",1.98609991,0.00078062,0x25,0x00
"SPI","result",1.99835724,0.00078063,0x01,0x00
"SPI","result",2.00144562,0.00078062,0x62,0x00
"SPI","result",2.00451363,0.00078063,0xBE,0x00
"SPI","result",2.00758427,0.00078062,0x3B,0x00
"SPI","result",2.01065154,0.00078062,0x1F,0x00
"SPI","result",2.01372162,0.00078062,0xD9,0x00
"SPI","result",2.01678951,0.00078062,0x07,0x00
"SPI","result",2.01985852,0.00078062,0x01,0x00
"SPI","result",2.02292741,0.00078063,0x01,0x00
"SPI","result",2.02599768,0.00078062,0x25,0x00
"SPI","result",2.03825364,0.00078062,0x01,0x00
"SPI","result",2.04134176,0.00078062,0x62,0x00
"SPI","result",2.04441003,0.00078062,0xBE,0x00
"SPI","result",2.04747941,0.00078063,0x3B,0x00
"SPI","result",2.05054824,0.00078063,0x1F,0x00
"SPI","result",2.05361832,0.00078062,0xD9,0x00
"SPI","result",2.05668584,0.00078062,0x07,0x00
"SPI","result",2.05975504,0.00078062,0x01,0x00
"SPI","result",2.06282387,0.00078062,0x01,0x00
"SPI","result",2.06589376,0.00078062,0x25,0x00
"SPI","result",2.07814997,0.00078062,0x01,0x00
"SPI","result",2.08123853,0.00078062,0x62,0x00
"SPI","result",2.08430655,0.00078062,0xBE,0x00
"SPI","result",2.08737543,0.00078062,0x3B,0x00
"SPI","result",2.09044439,0.00078062,0x1F,0x00
"SPI","result",2.09351328,0.00078062,0xD9,0x00
"SPI","result",2.09658242,0.00078062,0x07,0x00
"SPI","result",2.09965119,0.00078062,0x01,0x00
"SPI","result",2.10272039,0.00078062,0x01,0x00
"SPI","result",2.10578909,0.00078062,0x25,0x00
"SPI","result",2.11804623,0.00078063,0x01,0x00
"SPI","result",2.12113404,0.00078063,0x62,0x00
